#### 设计中的难点

① 拆分策略的定制，应对不同的AXI协议、数据位宽、突发类型、突发长度。

② 握手逻辑复杂，像W和R通道会有，SI端、MI端和CMD端握手。

大位宽转小位宽握手依赖：

​	Fifo为预取fifo, 拉高fifo_valid，表示fifo中已有等待转换的突发命令，然后等待si 端s_walid 拉高后输入数据。si端口数据输入后，mi端拉高m_wvalid 等待握手输出，计数器记录小位宽数据完整输出时，同时拉高si端的s_wready 完成下一次转换数据的握手输入，使得si端数据的握手输入和mi端的最后一个转换数据握手输出同时完成(避免等待)，然后再拉高w_cmd_ready 使得fifo当前数据输出，更新fifo输出的新突发命令信息，准备开始下一次转换过程。

小位宽转大位宽握手依赖（异步）：

​	可以一次缓存多个突发命令，因此需要数据和地址对应，逻辑中使用状态机，实现在burst的wdata出现wlast时，完成aw的数据的输入FIFO和wdata输入DRAM，使burst的aw和wdata同时完成缓存。

③ 流速不一致问题带来的数据覆盖和重复读取。

大位宽转小位宽：FIFO中突发指令的写入速度大于读出速度，与因此进行反压：具体反压过程为当检测到fifo为满时，则将addr端的m_axvalid 拉低，等待W通道和b通道读取fifo中数据，读取后检测到fifo不为满时则重新拉高m_axvalid，等待握手输出和fifo写入。

小位宽转大位宽：

(1) 数据对应问题，防止数据还未转换完成就被读出

1）数据读取是由MI状态机实现，而MI状态机的启动条件是aw_fifo为非空，并且读出aw最多领先w一个burst(MI状态机可缓存一次)， 而aw数据写入的时候是对应突发的wdata完成输入时，并且当aw _fifo 读空时MI状态机会停止转动，所以MI状态机读取数据时一定是SI端数据已经完成输入，并且不会在SI端没有输入数据或数据读空时继续读取数据。

2）当dram的写入速率小于其读出速率时，aw_fifo中剩余的aw数量则对应dram中写入超过读出的burst数量，则当该数量如果大于dram中burst可缓存的最大数量(dram分区)时，会出现还未读出的burst数据被新写入的burst数据覆盖掉，导致无法读出原burst数据，因而需要对awfifo中可剩余的aw数量进行限制，该限制值设置为bufnum-2(一般情况下该限制值最大可以设置为buf_num-1，但是因为MI状态机允许aw领先wdata一个burst，所以此处该限制值最大为buf num-2),则不会出现数据覆盖问题。

#### 验证（设计）出现的问题：

① 大位宽转小位宽时，b通道返回bresp时，bresp 和数据不对应。按照正常逻辑来说也可以放到si端svalid完成握手输出之后再拉高b_cmd_ready, 但是因为fifo更新数据要在b_cmd_ready 握手之后，所以放到s_valid 握手输出之后如果马上出现新的bresp输入，有可能出现bresp输入时fifo输出信息还未完成更新，要后一拍，可能出现逻辑问题。此处在最后一个bresp输入后就拉高b_ cmd_ready 更新fifo输出命令信息，是为了让新的命令信息在下一轮bresp输入前出现完成输出。

② 流速不一致问题带来的数据覆盖和重复读取。

1. 为提升速度做出的优化

   ① 数据握手输出的同时下一个数据输入

   ② 小位宽转大位宽时，输出状态机多缓存一个突发命令。

#### 转换延迟是多少？

AW 和 AR 通道：一个延迟周期。upsizer时的 W 通道：一个延迟周期（对于收盒完成的每个周期），在 SI 端（窄）接口上没有气泡周期。扩容时的 R 通道：一个延迟周期。B 通道：无延迟。缩小尺寸时的 R 通道：无延迟（对于打包完成的每个周期），MI 侧（窄）接口上没有气泡循环。缩小时的 W channel：无延迟。

#### FIFO是多少？

同步FIFO深度考虑（大位宽转小位宽）：仅仅是一个缓存的作用，1024->64 最大倍数是32，因此采用FIFO深度为64。

异步FIFO深度考虑（小位宽转大位宽）：异步时钟比例是变化的，最大倍数是16，大位宽转小位宽不涉及拆分，因此设置FIFO深度为16。FIFO中剩余的aw数量则对应DRAM分区剩余的数量，设置水位bufnum-2(一般情况下该限制值最大可以设置为buf_num-1，但是因为MI状态机允许aw领先wdata一个burst，所以此处该限制值最大为buf num-2)。

#### 资源利用了多少？

<img src="C:\Users\Lenovo\AppData\Roaming\Typora\typora-user-images\image-20250325221206450.png" alt="image-20250325221206450" style="zoom:80%;" />

<img src="C:\Users\Lenovo\AppData\Roaming\Typora\typora-user-images\image-20250325221306035.png" alt="image-20250325221306035" style="zoom:75%;" />

#### AXI流速怎么控制？

流速控制主要通过握手信号（valid/ready）控制，大位宽转小位宽采用反压的方式，小位宽转大位宽使用FIFO 水位控制流速。

#### AXI 原子操作

###### **[Exclusive Access]()（独占访问）**

通过“监视-验证”机制实现原子操作，**不锁定总线**，允许其他设备访问非冲突区域，适合低竞争场景。

一个例子说明独占访问：假如Master_a想读取Slave_a某一块内存上的值，并对该值进行修改。

①Master_a向Slave_a发送一个ARLOCK=2'b01的读请求，声明对某个地址的“独占意图”;

②Slave_a收到读请求后将对应的地址状态修改为“**被监视状态**”，并向Master_a返回当前值；

③Master_a收到读数据之后对读数据进行修改；

④Master_a发送一个AWLOCK=2'b01的写请求，并发送修改好的写数据；

⑤Slave_a收到写数据之后检测在②之后改地址的数据是否被其他Master修改过：

- 未修改：写入成功，返回BRESP=EXOKAY;
- 已修改：写入失败，返回BRESP=OKAY，主设备择机重新发起操作。

###### **Loxked Access（ 锁定访问）**

通过**强制锁定总线**，确保一段操作序列的原子性。锁定期间，其他主设备无法访问总线，适合旧系统或简单场景，但AXI4中已不推荐使用。

一个例子说明独占访问：假如Master_a想读取Slave_a某一块内存上的值，并对该值进行修改。

①Master_a向Slave_a发送一个ARLOCK=2'b10的读请求，总线进入锁定状态;

②所有其他主设备的请求被阻塞，直到锁定解除；

③主设备连续执行多个读写操作（例如读-改-写）；

④主设备发送普通事务（AxLOCK=2'b10）解锁或完成锁定序列后自动解锁。

非对齐传输是如何管理的？

答：非对齐传输是指传输的数据地址没有对齐到所传输数据宽度的边界（例如，32 位数据传输的地址不是 4 的倍数）首先根据传输的起始地址和数据宽度计算字节选通信号（STRB），用该信号标识有效数据字节（如 32 位传输中地址为 0x0001 时，STRB 为 0011 表示低 2 字节有效）；对于单拍传输，主设备直接发送非对齐地址与对应 STRB 信号，从设备根据 STRB 仅处理有效字节；对于多拍突发传输，若首地址非对齐，主设备需将其拆分为多个对齐的子传输序列（确保每个子传输地址符合对应长度的对齐要求），通过多拍发送不同地址和 STRB 信号完成总传输，从设备逐拍解析 STRB 并处理有效数据；若从设备不支持非对齐传输，则返回 SLVERR 错误，由主设备通过中断或重试机制处理。
